T09F8 5872:062 SEGGER J-Link V4.98e Log File (0000ms, 9136ms total)
T09F8 5872:062 DLL Compiled: May  5 2015 11:00:52 (0000ms, 9136ms total)
T09F8 5872:062 Logging started @ 2016-05-18 18:08 (0000ms, 9136ms total)
T09F8 5872:070 JLINK_ExecCommand("Device = AT91SAM4SD32C", ...)Device "ATSAM4SD32C" selected.  returns 0x00 (0000ms, 9136ms total)
T09F8 5872:156 JLINK_ExecCommand("ProjectFile = T:\1101298-6\Entregas\14-ADC\ILI93XX_EXAMPLE1\jlink.config", ...)  returns 0x00 (0001ms, 9137ms total)
T09F8 5872:165 JLINK_ExecCommand("Device = AT91SAM4SD32C", ...)Device "ATSAM4SD32C" selected.  returns 0x00 (0000ms, 9137ms total)
T09F8 5872:165 JLINK_TIF_Select(JLINKARM_TIF_JTAG)  returns 0x00 (0007ms, 9144ms total)
T09F8 5872:172 JLINK_GetIdData(...) >0x2F8 JTAG>TotalIRLen = 4, IRPrint = 0x01 >0x30 JTAG> >0x210 JTAG> >0x70 JTAG> >0x40 JTAG> >0x40 JTAG> >0x40 JTAG> >0x48 JTAG> >0x78 JTAG> >0x40 JTAG> >0x30 JTAG> >0x40 JTAG> >0x40 JTAG> >0x30 JTAG> >0x40 JTAG> >0x48 JTAG>Found Cortex-M4 r0p1, Little endian. -- CPU_WriteMem(4 bytes @ 0xE0002000) -- CPU_ReadMem(4 bytes @ 0xE000EDF0) -- CPU_ReadMem(4 bytes @ 0xE0002000)FPUnit: 6 code (BP) slots and 2 literal slots -- CPU_ReadMem(4 bytes @ 0xE000EDFC)
 -- CPU_ReadMem(4 bytes @ 0xE0001000) -- CPU_WriteMem(4 bytes @ 0xE0001000) -- CPU_ReadMem(4 bytes @ 0xE000ED88) -- CPU_WriteMem(4 bytes @ 0xE000ED88) -- CPU_ReadMem(4 bytes @ 0xE000ED88) -- CPU_WriteMem(4 bytes @ 0xE000ED88)CoreSight components:ROMTbl 0 @ E00FF000 -- CPU_ReadMem(16 bytes @ 0xE00FF000) -- CPU_ReadMem(16 bytes @ 0xE000EFF0) -- CPU_ReadMem(16 bytes @ 0xE000EFE0)ROMTbl 0 [0]: FFF0F000, CID: B105E00D, PID: 000BB000 SCS -- CPU_ReadMem(16 bytes @ 0xE0001FF0)
 -- CPU_ReadMem(16 bytes @ 0xE0001FE0)ROMTbl 0 [1]: FFF02000, CID: B105E00D, PID: 003BB002 DWT -- CPU_ReadMem(16 bytes @ 0xE0002FF0) -- CPU_ReadMem(16 bytes @ 0xE0002FE0)ROMTbl 0 [2]: FFF03000, CID: B105E00D, PID: 002BB003 FPB -- CPU_ReadMem(16 bytes @ 0xE0000FF0) -- CPU_ReadMem(16 bytes @ 0xE0000FE0)ROMTbl 0 [3]: FFF01000, CID: B105E00D, PID: 003BB001 ITM -- CPU_ReadMem(16 bytes @ 0xE00FF010) -- CPU_ReadMem(16 bytes @ 0xE0040FF0) -- CPU_ReadMem(16 bytes @ 0xE0040FE0)
ROMTbl 0 [4]: FFF41000, CID: B105900D, PID: 000BB9A1 TPIU ScanLen=4 NumDevices=1 aId[0]=0x4BA00477 aIrRead[0]=0 aScanLen[0]=0 aScanRead[0]=0 (0045ms, 9189ms total)
T09F8 5872:217 JLINK_ConfigJTAG(IRPre = 0, DRPre = 0) (0000ms, 9189ms total)
T09F8 5872:217 JLINK_SetSpeed(1000) (0001ms, 9190ms total)
T09F8 5872:218 JLINK_ResetPullsRESET(OFF) (0000ms, 9190ms total)
T09F8 5872:218 JLINK_Connect() >0x2F8 JTAG>TotalIRLen = 4, IRPrint = 0x01 >0x30 JTAG> >0x210 JTAG> >0x70 JTAG> >0x40 JTAG> >0x40 JTAG> >0x40 JTAG> >0x48 JTAG> >0x78 JTAG> >0x40 JTAG> >0x30 JTAG> >0x40 JTAG> >0x40 JTAG> >0x30 JTAG> >0x40 JTAG> >0x48 JTAG>Found Cortex-M4 r0p1, Little endian. -- CPU_WriteMem(4 bytes @ 0xE0002000) -- CPU_ReadMem(4 bytes @ 0xE000EDF0) -- CPU_ReadMem(4 bytes @ 0xE0002000)FPUnit: 6 code (BP) slots and 2 literal slots -- CPU_ReadMem(4 bytes @ 0xE000EDFC)
 -- CPU_ReadMem(4 bytes @ 0xE0001000) -- CPU_WriteMem(4 bytes @ 0xE0001000) -- CPU_ReadMem(4 bytes @ 0xE000ED88) -- CPU_WriteMem(4 bytes @ 0xE000ED88) -- CPU_ReadMem(4 bytes @ 0xE000ED88) -- CPU_WriteMem(4 bytes @ 0xE000ED88)CoreSight components:ROMTbl 0 @ E00FF000 -- CPU_ReadMem(16 bytes @ 0xE00FF000) -- CPU_ReadMem(16 bytes @ 0xE000EFF0) -- CPU_ReadMem(16 bytes @ 0xE000EFE0)ROMTbl 0 [0]: FFF0F000, CID: B105E00D, PID: 000BB000 SCS -- CPU_ReadMem(16 bytes @ 0xE0001FF0)
 -- CPU_ReadMem(16 bytes @ 0xE0001FE0)ROMTbl 0 [1]: FFF02000, CID: B105E00D, PID: 003BB002 DWT -- CPU_ReadMem(16 bytes @ 0xE0002FF0) -- CPU_ReadMem(16 bytes @ 0xE0002FE0)ROMTbl 0 [2]: FFF03000, CID: B105E00D, PID: 002BB003 FPB -- CPU_ReadMem(16 bytes @ 0xE0000FF0) -- CPU_ReadMem(16 bytes @ 0xE0000FE0)ROMTbl 0 [3]: FFF01000, CID: B105E00D, PID: 003BB001 ITM -- CPU_ReadMem(16 bytes @ 0xE00FF010) -- CPU_ReadMem(16 bytes @ 0xE0040FF0) -- CPU_ReadMem(16 bytes @ 0xE0040FE0)
ROMTbl 0 [4]: FFF41000, CID: B105900D, PID: 000BB9A1 TPIU  returns 0x00 (0043ms, 9233ms total)
T09F8 5872:261 JLINK_GetDebugInfo(0x100) -- Value=0xE00FF003  returns 0x00 (0001ms, 9234ms total)
T09F8 5872:262 JLINK_ReadMem (0xE00FFFF0, 0x0010 Bytes, ...) -- CPU is running -- CPU_ReadMem(16 bytes @ 0xE00FFFF0) - Data: 0D 00 00 00 10 00 00 00 05 00 00 00 B1 00 00 00  returns 0x00 (0002ms, 9236ms total)
T09F8 5872:264 JLINK_ReadMem (0xE00FFFD0, 0x0020 Bytes, ...) -- CPU is running -- CPU_ReadMem(32 bytes @ 0xE00FFFD0) - Data: 04 00 00 00 00 00 00 00 00 00 00 00 00 00 00 00 ...  returns 0x00 (0002ms, 9238ms total)
T09F8 5872:266 JLINK_ReadMemU32(0xE00FF000, 0x0001 Items, ...) -- CPU is running -- CPU_ReadMem(4 bytes @ 0xE00FF000) - Data: 03 F0 F0 FF  returns 0x01 (0001ms, 9239ms total)
T09F8 5872:267 JLINK_ReadMem (0xE000EFF0, 0x0010 Bytes, ...) -- CPU is running -- CPU_ReadMem(16 bytes @ 0xE000EFF0) - Data: 0D 00 00 00 E0 00 00 00 05 00 00 00 B1 00 00 00  returns 0x00 (0001ms, 9240ms total)
T09F8 5872:268 JLINK_ReadMem (0xE000EFD0, 0x0020 Bytes, ...) -- CPU is running -- CPU_ReadMem(32 bytes @ 0xE000EFD0) - Data: 04 00 00 00 00 00 00 00 00 00 00 00 00 00 00 00 ...  returns 0x00 (0002ms, 9242ms total)
T09F8 5872:270 JLINK_ReadMemU32(0xE00FF004, 0x0001 Items, ...) -- CPU is running -- CPU_ReadMem(4 bytes @ 0xE00FF004) - Data: 03 20 F0 FF  returns 0x01 (0001ms, 9243ms total)
T09F8 5872:271 JLINK_ReadMem (0xE0001FF0, 0x0010 Bytes, ...) -- CPU is running -- CPU_ReadMem(16 bytes @ 0xE0001FF0) - Data: 0D 00 00 00 E0 00 00 00 05 00 00 00 B1 00 00 00  returns 0x00 (0001ms, 9244ms total)
T09F8 5872:272 JLINK_ReadMem (0xE0001FD0, 0x0020 Bytes, ...) -- CPU is running -- CPU_ReadMem(32 bytes @ 0xE0001FD0) - Data: 04 00 00 00 00 00 00 00 00 00 00 00 00 00 00 00 ...  returns 0x00 (0002ms, 9246ms total)
T09F8 5872:274 JLINK_ReadMemU32(0xE00FF008, 0x0001 Items, ...) -- CPU is running -- CPU_ReadMem(4 bytes @ 0xE00FF008) - Data: 03 30 F0 FF  returns 0x01 (0001ms, 9247ms total)
T09F8 5872:275 JLINK_ReadMem (0xE0002FF0, 0x0010 Bytes, ...) -- CPU is running -- CPU_ReadMem(16 bytes @ 0xE0002FF0) - Data: 0D 00 00 00 E0 00 00 00 05 00 00 00 B1 00 00 00  returns 0x00 (0001ms, 9248ms total)
T09F8 5872:276 JLINK_ReadMem (0xE0002FD0, 0x0020 Bytes, ...) -- CPU is running -- CPU_ReadMem(32 bytes @ 0xE0002FD0) - Data: 04 00 00 00 00 00 00 00 00 00 00 00 00 00 00 00 ...  returns 0x00 (0002ms, 9250ms total)
T09F8 5872:278 JLINK_ReadMemU32(0xE00FF00C, 0x0001 Items, ...) -- CPU is running -- CPU_ReadMem(4 bytes @ 0xE00FF00C) - Data: 03 10 F0 FF  returns 0x01 (0001ms, 9251ms total)
T09F8 5872:279 JLINK_ReadMem (0xE0000FF0, 0x0010 Bytes, ...) -- CPU is running -- CPU_ReadMem(16 bytes @ 0xE0000FF0) - Data: 0D 00 00 00 E0 00 00 00 05 00 00 00 B1 00 00 00  returns 0x00 (0001ms, 9252ms total)
T09F8 5872:280 JLINK_ReadMem (0xE0000FD0, 0x0020 Bytes, ...) -- CPU is running -- CPU_ReadMem(32 bytes @ 0xE0000FD0) - Data: 04 00 00 00 00 00 00 00 00 00 00 00 00 00 00 00 ...  returns 0x00 (0002ms, 9254ms total)
T09F8 5872:282 JLINK_ReadMemU32(0xE00FF010, 0x0001 Items, ...) -- CPU is running -- CPU_ReadMem(4 bytes @ 0xE00FF010) - Data: 03 10 F4 FF  returns 0x01 (0001ms, 9255ms total)
T09F8 5872:283 JLINK_ReadMem (0xE0040FF0, 0x0010 Bytes, ...) -- CPU is running -- CPU_ReadMem(16 bytes @ 0xE0040FF0) - Data: 0D 00 00 00 90 00 00 00 05 00 00 00 B1 00 00 00  returns 0x00 (0001ms, 9256ms total)
T09F8 5872:284 JLINK_ReadMem (0xE0040FD0, 0x0020 Bytes, ...) -- CPU is running -- CPU_ReadMem(32 bytes @ 0xE0040FD0) - Data: 04 00 00 00 00 00 00 00 00 00 00 00 00 00 00 00 ...  returns 0x00 (0002ms, 9258ms total)
T09F8 5872:286 JLINK_ReadMemU32(0xE00FF014, 0x0001 Items, ...) -- CPU is running -- CPU_ReadMem(4 bytes @ 0xE00FF014) - Data: 02 20 F4 FF  returns 0x01 (0001ms, 9259ms total)
T09F8 5872:287 JLINK_ReadMemU32(0xE00FF018, 0x0001 Items, ...) -- CPU is running -- CPU_ReadMem(4 bytes @ 0xE00FF018) - Data: 00 00 00 00  returns 0x01 (0001ms, 9260ms total)
T09F8 5872:288 JLINK_ReadMem (0xE0001000, 0x0004 Bytes, ...) -- CPU is running -- CPU_ReadMem(4 bytes @ 0xE0001000) - Data: 01 00 00 40  returns 0x00 (0001ms, 9261ms total)
T09F8 5872:289 JLINK_ReadMem (0xE0001000, 0x0004 Bytes, ...) -- CPU is running -- CPU_ReadMem(4 bytes @ 0xE0001000) - Data: 01 00 00 40  returns 0x00 (0001ms, 9262ms total)
T09F8 5872:290 JLINK_ReadMem (0xE0001028, 0x0004 Bytes, ...) -- CPU is running -- CPU_ReadMem(4 bytes @ 0xE0001028) - Data: 00 00 00 00  returns 0x00 (0001ms, 9263ms total)
T09F8 5872:291 JLINK_WriteMem(0xE0001028, 0x0004 Bytes, ...) - Data: 00 01 00 00 -- CPU is running -- CPU_WriteMem(4 bytes @ 0xE0001028)  returns 0x04 (0001ms, 9264ms total)
T09F8 5872:292 JLINK_ReadMem (0xE0001028, 0x0004 Bytes, ...) -- CPU is running -- CPU_ReadMem(4 bytes @ 0xE0001028) - Data: 00 00 00 00  returns 0x00 (0001ms, 9265ms total)
T09F8 5872:293 JLINK_ReadMem (0xE0001038, 0x0004 Bytes, ...) -- CPU is running -- CPU_ReadMem(4 bytes @ 0xE0001038) - Data: 00 02 00 00  returns 0x00 (0001ms, 9266ms total)
T09F8 5872:294 JLINK_WriteMem(0xE0001038, 0x0004 Bytes, ...) - Data: 00 03 00 00 -- CPU is running -- CPU_WriteMem(4 bytes @ 0xE0001038)  returns 0x04 (0001ms, 9267ms total)
T09F8 5872:295 JLINK_ReadMem (0xE0001038, 0x0004 Bytes, ...) -- CPU is running -- CPU_ReadMem(4 bytes @ 0xE0001038) - Data: 00 03 00 00  returns 0x00 (0001ms, 9268ms total)
T09F8 5872:296 JLINK_ReadMem (0xE0001048, 0x0004 Bytes, ...) -- CPU is running -- CPU_ReadMem(4 bytes @ 0xE0001048) - Data: 00 00 00 00  returns 0x00 (0001ms, 9269ms total)
T09F8 5872:297 JLINK_WriteMem(0xE0001048, 0x0004 Bytes, ...) - Data: 00 01 00 00 -- CPU is running -- CPU_WriteMem(4 bytes @ 0xE0001048)  returns 0x04 (0001ms, 9270ms total)
T09F8 5872:298 JLINK_ReadMem (0xE0001048, 0x0004 Bytes, ...) -- CPU is running -- CPU_ReadMem(4 bytes @ 0xE0001048) - Data: 00 00 00 00  returns 0x00 (0001ms, 9271ms total)
T09F8 5872:299 JLINK_ReadMem (0xE0001058, 0x0004 Bytes, ...) -- CPU is running -- CPU_ReadMem(4 bytes @ 0xE0001058) - Data: 00 00 00 00  returns 0x00 (0001ms, 9272ms total)
T09F8 5872:300 JLINK_WriteMem(0xE0001058, 0x0004 Bytes, ...) - Data: 00 01 00 00 -- CPU is running -- CPU_WriteMem(4 bytes @ 0xE0001058)  returns 0x04 (0001ms, 9273ms total)
T09F8 5872:301 JLINK_ReadMem (0xE0001058, 0x0004 Bytes, ...) -- CPU is running -- CPU_ReadMem(4 bytes @ 0xE0001058) - Data: 00 00 00 00  returns 0x00 (0001ms, 9274ms total)
T09F8 5872:302 JLINK_ReadMem (0xE0001024, 0x0004 Bytes, ...) -- CPU is running -- CPU_ReadMem(4 bytes @ 0xE0001024) - Data: 00 00 00 00  returns 0x00 (0001ms, 9275ms total)
T09F8 5872:303 JLINK_WriteMem(0xE0001024, 0x0004 Bytes, ...) - Data: 1F 00 00 00 -- CPU is running -- CPU_WriteMem(4 bytes @ 0xE0001024)  returns 0x04 (0001ms, 9276ms total)
T09F8 5872:304 JLINK_ReadMem (0xE0001024, 0x0004 Bytes, ...) -- CPU is running -- CPU_ReadMem(4 bytes @ 0xE0001024) - Data: 0F 00 00 00  returns 0x00 (0001ms, 9277ms total)
T09F8 5872:305 JLINK_ReadMem (0xE0001034, 0x0004 Bytes, ...) -- CPU is running -- CPU_ReadMem(4 bytes @ 0xE0001034) - Data: 00 00 00 00  returns 0x00 (0001ms, 9278ms total)
T09F8 5872:306 JLINK_WriteMem(0xE0001034, 0x0004 Bytes, ...) - Data: 1F 00 00 00 -- CPU is running -- CPU_WriteMem(4 bytes @ 0xE0001034)  returns 0x04 (0001ms, 9279ms total)
T09F8 5872:307 JLINK_ReadMem (0xE0001034, 0x0004 Bytes, ...) -- CPU is running -- CPU_ReadMem(4 bytes @ 0xE0001034) - Data: 0F 00 00 00  returns 0x00 (0001ms, 9280ms total)
T09F8 5872:308 JLINK_ReadMem (0xE0001044, 0x0004 Bytes, ...) -- CPU is running -- CPU_ReadMem(4 bytes @ 0xE0001044) - Data: 00 00 00 00  returns 0x00 (0001ms, 9281ms total)
T09F8 5872:309 JLINK_WriteMem(0xE0001044, 0x0004 Bytes, ...) - Data: 1F 00 00 00 -- CPU is running -- CPU_WriteMem(4 bytes @ 0xE0001044)  returns 0x04 (0001ms, 9282ms total)
T09F8 5872:310 JLINK_ReadMem (0xE0001044, 0x0004 Bytes, ...) -- CPU is running -- CPU_ReadMem(4 bytes @ 0xE0001044) - Data: 0F 00 00 00  returns 0x00 (0001ms, 9283ms total)
T09F8 5872:311 JLINK_ReadMem (0xE0001054, 0x0004 Bytes, ...) -- CPU is running -- CPU_ReadMem(4 bytes @ 0xE0001054) - Data: 00 00 00 00  returns 0x00 (0001ms, 9284ms total)
T09F8 5872:312 JLINK_WriteMem(0xE0001054, 0x0004 Bytes, ...) - Data: 1F 00 00 00 -- CPU is running -- CPU_WriteMem(4 bytes @ 0xE0001054)  returns 0x04 (0001ms, 9285ms total)
T09F8 5872:313 JLINK_ReadMem (0xE0001054, 0x0004 Bytes, ...) -- CPU is running -- CPU_ReadMem(4 bytes @ 0xE0001054) - Data: 0F 00 00 00  returns 0x00 (0001ms, 9286ms total)
T09F8 5872:314 JLINK_ReadMem (0xE0001028, 0x0004 Bytes, ...) -- CPU is running -- CPU_ReadMem(4 bytes @ 0xE0001028) - Data: 00 00 00 00  returns 0x00 (0001ms, 9287ms total)
T09F8 5872:315 JLINK_ReadMem (0xE0001038, 0x0004 Bytes, ...) -- CPU is running -- CPU_ReadMem(4 bytes @ 0xE0001038) - Data: 00 03 00 00  returns 0x00 (0001ms, 9288ms total)
T09F8 5872:316 JLINK_ReadMem (0xE0001048, 0x0004 Bytes, ...) -- CPU is running -- CPU_ReadMem(4 bytes @ 0xE0001048) - Data: 00 00 00 00  returns 0x00 (0001ms, 9289ms total)
T09F8 5872:317 JLINK_ReadMem (0xE0001058, 0x0004 Bytes, ...) -- CPU is running -- CPU_ReadMem(4 bytes @ 0xE0001058) - Data: 00 00 00 00  returns 0x00 (0001ms, 9290ms total)
T09F8 5872:318 JLINK_WriteMem(0xE0001020, 0x0004 Bytes, ...) - Data: 00 00 00 00 -- CPU is running -- CPU_WriteMem(4 bytes @ 0xE0001020)  returns 0x04 (0001ms, 9291ms total)
T09F8 5872:319 JLINK_WriteMem(0xE0001024, 0x0004 Bytes, ...) - Data: 00 00 00 00 -- CPU is running -- CPU_WriteMem(4 bytes @ 0xE0001024)  returns 0x04 (0001ms, 9292ms total)
T09F8 5872:320 JLINK_WriteMem(0xE0001028, 0x0004 Bytes, ...) - Data: 00 00 00 00 -- CPU is running -- CPU_WriteMem(4 bytes @ 0xE0001028)  returns 0x04 (0001ms, 9293ms total)
T09F8 5872:321 JLINK_WriteMem(0xE0001030, 0x0004 Bytes, ...) - Data: 00 00 00 00 -- CPU is running -- CPU_WriteMem(4 bytes @ 0xE0001030)  returns 0x04 (0001ms, 9294ms total)
T09F8 5872:322 JLINK_WriteMem(0xE0001034, 0x0004 Bytes, ...) - Data: 00 00 00 00 -- CPU is running -- CPU_WriteMem(4 bytes @ 0xE0001034)  returns 0x04 (0001ms, 9295ms total)
T09F8 5872:323 JLINK_WriteMem(0xE0001038, 0x0004 Bytes, ...) - Data: 00 00 00 00 -- CPU is running -- CPU_WriteMem(4 bytes @ 0xE0001038)  returns 0x04 (0001ms, 9296ms total)
T09F8 5872:324 JLINK_WriteMem(0xE0001040, 0x0004 Bytes, ...) - Data: 00 00 00 00 -- CPU is running -- CPU_WriteMem(4 bytes @ 0xE0001040)  returns 0x04 (0001ms, 9297ms total)
T09F8 5872:325 JLINK_WriteMem(0xE0001044, 0x0004 Bytes, ...) - Data: 00 00 00 00 -- CPU is running -- CPU_WriteMem(4 bytes @ 0xE0001044)  returns 0x04 (0001ms, 9298ms total)
T09F8 5872:326 JLINK_WriteMem(0xE0001048, 0x0004 Bytes, ...) - Data: 00 00 00 00 -- CPU is running -- CPU_WriteMem(4 bytes @ 0xE0001048)  returns 0x04 (0001ms, 9299ms total)
T09F8 5872:327 JLINK_WriteMem(0xE0001050, 0x0004 Bytes, ...) - Data: 00 00 00 00 -- CPU is running -- CPU_WriteMem(4 bytes @ 0xE0001050)  returns 0x04 (0001ms, 9300ms total)
T09F8 5872:328 JLINK_WriteMem(0xE0001054, 0x0004 Bytes, ...) - Data: 00 00 00 00 -- CPU is running -- CPU_WriteMem(4 bytes @ 0xE0001054)  returns 0x04 (0001ms, 9301ms total)
T09F8 5872:329 JLINK_WriteMem(0xE0001058, 0x0004 Bytes, ...) - Data: 00 00 00 00 -- CPU is running -- CPU_WriteMem(4 bytes @ 0xE0001058)  returns 0x04 (0001ms, 9302ms total)
T09F8 5872:330 JLINK_Halt()  returns 0x00 (0008ms, 9310ms total)
T09F8 5872:338 JLINK_WriteMem(0x400E0A04, 0x0004 Bytes, ...) - Data: 0B 01 00 5A -- CPU_WriteMem(4 bytes @ 0x400E0A04)  returns 0x04 (0001ms, 9311ms total)
T09F8 5872:339 JLINK_ReadMem (0x400E0A08, 0x0004 Bytes, ...) -- CPU_ReadMem(4 bytes @ 0x400E0A08) - Data: 01 00 00 00  returns 0x00 (0001ms, 9312ms total)
T09F8 5872:340 JLINK_WriteMem(0x400E0A04, 0x0004 Bytes, ...) - Data: 0C 02 00 5A -- CPU_WriteMem(4 bytes @ 0x400E0A04)  returns 0x04 (0001ms, 9313ms total)
T09F8 5872:341 JLINK_ReadMem (0x400E0A08, 0x0004 Bytes, ...) -- CPU_ReadMem(4 bytes @ 0x400E0A08) - Data: 01 00 00 00  returns 0x00 (0001ms, 9314ms total)
T09F8 5872:342 JLINK_Reset() -- CPU_ReadMem(16 bytes @ 0x20000000) -- CPU_WriteMem(16 bytes @ 0x20000000) -- CPU_ReadMem(4 bytes @ 0xE000EDFC) -- CPU_WriteMem(4 bytes @ 0xE000EDFC) -- CPU_ReadMem(4 bytes @ 0xE0001000) -- CPU_WriteMem(4 bytes @ 0xE000EDFC) -- CPU_WriteMem(16 bytes @ 0x20000000) -- CPU_WriteMem(4 bytes @ 0xE0002000) -- CPU_ReadMem(4 bytes @ 0xE000EDFC) -- CPU_ReadMem(4 bytes @ 0xE0001000) (0039ms, 9353ms total)
T09F8 5872:382 JLINK_JTAG_GetDeviceID(DeviceIndex = 0)  returns 0x4BA00477 (0000ms, 9353ms total)
T09F8 5872:382 JLINK_ReadMemU32(0x400E0740, 0x0001 Items, ...) -- CPU_ReadMem(4 bytes @ 0x400E0740) - Data: E0 0E A7 29  returns 0x01 (0001ms, 9354ms total)
T09F8 5872:383 JLINK_ReadMemU32(0x400E0744, 0x0001 Items, ...) -- CPU_ReadMem(4 bytes @ 0x400E0744) - Data: 00 00 00 00  returns 0x01 (0001ms, 9355ms total)
T09F8 5872:384 JLINK_WriteMem(0x400E0A04, 0x0004 Bytes, ...) - Data: 05 00 00 5A -- CPU_WriteMem(4 bytes @ 0x400E0A04)  returns 0x04 (0001ms, 9356ms total)
T09F8 5872:385 JLINK_WriteMem(0x400E0C04, 0x0004 Bytes, ...) - Data: 05 00 00 5A -- CPU_WriteMem(4 bytes @ 0x400E0C04)  returns 0x04 (0001ms, 9357ms total)
T09F8 5872:386 JLINK_ReadMem (0x400E0A08, 0x0004 Bytes, ...) -- CPU_ReadMem(4 bytes @ 0x400E0A08) - Data: 00 00 00 00  returns 0x00 (0001ms, 9358ms total)
T09F8 5872:388 JLINK_ReadMem (0x400E0A08, 0x0004 Bytes, ...) -- CPU_ReadMem(4 bytes @ 0x400E0A08) - Data: 00 00 00 00  returns 0x00 (0001ms, 9359ms total)
T09F8 5872:393 JLINK_ReadMem (0x400E0A08, 0x0004 Bytes, ...) -- CPU_ReadMem(4 bytes @ 0x400E0A08) - Data: 00 00 00 00  returns 0x00 (0001ms, 9360ms total)
T2060 5872:394 JLINK_IsHalted()  returns TRUE (0000ms, 9360ms total)
T2060 5872:394 JLINK_GetMOEs(...) -- CPU_ReadMem(4 bytes @ 0xE000ED30) -- CPU_WriteMem(4 bytes @ 0xE000ED30)  returns 0x01 (0002ms, 9362ms total)
T2060 5872:396 JLINK_ReadReg(R15 (PC))  returns 0x0040112C (0000ms, 9362ms total)
T09F8 5872:410 JLINK_ReadMem (0x400E0A08, 0x0004 Bytes, ...) -- CPU_ReadMem(4 bytes @ 0x400E0A08) - Data: 00 00 00 00  returns 0x00 (0001ms, 9363ms total)
T09F8 5872:475 JLINK_ReadMem (0x400E0A08, 0x0004 Bytes, ...) -- CPU_ReadMem(4 bytes @ 0x400E0A08) - Data: 00 00 00 00  returns 0x00 (0001ms, 9364ms total)
T2060 5872:596 JLINK_IsHalted()  returns TRUE (0000ms, 9364ms total)
T09F8 5872:732 JLINK_ReadMem (0x400E0A08, 0x0004 Bytes, ...) -- CPU_ReadMem(4 bytes @ 0x400E0A08) - Data: 00 00 00 00  returns 0x00 (0001ms, 9365ms total)
T2060 5872:796 JLINK_IsHalted()  returns TRUE (0000ms, 9365ms total)
T2060 5872:996 JLINK_IsHalted()  returns TRUE (0001ms, 9366ms total)
T2060 5873:197 JLINK_IsHalted()  returns TRUE (0000ms, 9365ms total)
T2060 5873:397 JLINK_IsHalted()  returns TRUE (0001ms, 9366ms total)
T2060 5873:598 JLINK_IsHalted()  returns TRUE (0001ms, 9366ms total)
T09F8 5873:733 JLINK_ReadMem (0x400E0A08, 0x0004 Bytes, ...) -- CPU_ReadMem(4 bytes @ 0x400E0A08) - Data: 00 00 00 00  returns 0x00 (0001ms, 9366ms total)
T09F8 5873:734 JLINK_ReadMem (0x400E0C08, 0x0004 Bytes, ...) -- CPU_ReadMem(4 bytes @ 0x400E0C08) - Data: 00 00 00 00  returns 0x00 (0001ms, 9367ms total)
T09F8 5873:736 JLINK_ReadMem (0x400E0C08, 0x0004 Bytes, ...) -- CPU_ReadMem(4 bytes @ 0x400E0C08) - Data: 00 00 00 00  returns 0x00 (0001ms, 9368ms total)
T09F8 5873:741 JLINK_ReadMem (0x400E0C08, 0x0004 Bytes, ...) -- CPU_ReadMem(4 bytes @ 0x400E0C08) - Data: 00 00 00 00  returns 0x00 (0001ms, 9369ms total)
T09F8 5873:758 JLINK_ReadMem (0x400E0C08, 0x0004 Bytes, ...) -- CPU_ReadMem(4 bytes @ 0x400E0C08) - Data: 00 00 00 00  returns 0x00 (0001ms, 9370ms total)
T2060 5873:799 JLINK_IsHalted()  returns TRUE (0000ms, 9370ms total)
T09F8 5873:823 JLINK_ReadMem (0x400E0C08, 0x0004 Bytes, ...) -- CPU_ReadMem(4 bytes @ 0x400E0C08) - Data: 00 00 00 00  returns 0x00 (0001ms, 9371ms total)
T2060 5873:999 JLINK_IsHalted()  returns TRUE (0000ms, 9371ms total)
T09F8 5874:080 JLINK_ReadMem (0x400E0C08, 0x0004 Bytes, ...) -- CPU_ReadMem(4 bytes @ 0x400E0C08) - Data: 00 00 00 00  returns 0x00 (0001ms, 9372ms total)
T2060 5874:199 JLINK_IsHalted()  returns TRUE (0001ms, 9373ms total)
T2060 5874:400 JLINK_IsHalted()  returns TRUE (0001ms, 9373ms total)
T2060 5874:601 JLINK_IsHalted()  returns TRUE (0000ms, 9372ms total)
T2060 5874:801 JLINK_IsHalted()  returns TRUE (0001ms, 9373ms total)
T2060 5875:002 JLINK_IsHalted()  returns TRUE (0000ms, 9372ms total)
T09F8 5875:081 JLINK_ReadMem (0x400E0C08, 0x0004 Bytes, ...) -- CPU_ReadMem(4 bytes @ 0x400E0C08) - Data: 00 00 00 00  returns 0x00 (0001ms, 9373ms total)
T09F8 5875:082 JLINK_ReadMem (0x400E0A08, 0x0004 Bytes, ...) -- CPU_ReadMem(4 bytes @ 0x400E0A08) - Data: 00 00 00 00  returns 0x00 (0001ms, 9374ms total)
T09F8 5875:084 JLINK_ReadMem (0x400E0A08, 0x0004 Bytes, ...) -- CPU_ReadMem(4 bytes @ 0x400E0A08) - Data: 00 00 00 00  returns 0x00 (0001ms, 9375ms total)
T09F8 5875:089 JLINK_ReadMem (0x400E0A08, 0x0004 Bytes, ...) -- CPU_ReadMem(4 bytes @ 0x400E0A08) - Data: 00 00 00 00  returns 0x00 (0001ms, 9376ms total)
T09F8 5875:106 JLINK_ReadMem (0x400E0A08, 0x0004 Bytes, ...) -- CPU_ReadMem(4 bytes @ 0x400E0A08) - Data: 00 00 00 00  returns 0x00 (0001ms, 9377ms total)
T09F8 5875:171 JLINK_ReadMem (0x400E0A08, 0x0004 Bytes, ...) -- CPU_ReadMem(4 bytes @ 0x400E0A08) - Data: 00 00 00 00  returns 0x00 (0001ms, 9378ms total)
T2060 5875:202 JLINK_IsHalted()  returns TRUE (0000ms, 9378ms total)
T2060 5875:402 JLINK_IsHalted()  returns TRUE (0002ms, 9380ms total)
T09F8 5875:428 JLINK_ReadMem (0x400E0A08, 0x0004 Bytes, ...) -- CPU_ReadMem(4 bytes @ 0x400E0A08) - Data: 00 00 00 00  returns 0x00 (0001ms, 9379ms total)
T2060 5875:604 JLINK_IsHalted()  returns TRUE (0000ms, 9379ms total)
T2060 5875:804 JLINK_IsHalted()  returns TRUE (0000ms, 9379ms total)
T2060 5876:004 JLINK_IsHalted()  returns TRUE (0001ms, 9380ms total)
T2060 5876:205 JLINK_IsHalted()  returns TRUE (0000ms, 9379ms total)
T2060 5876:405 JLINK_IsHalted()  returns TRUE (0001ms, 9380ms total)
T09F8 5876:429 JLINK_ReadMem (0x400E0A08, 0x0004 Bytes, ...) -- CPU_ReadMem(4 bytes @ 0x400E0A08) - Data: 00 00 00 00  returns 0x00 (0001ms, 9380ms total)
T09F8 5876:430 JLINK_ReadMem (0x400E0C08, 0x0004 Bytes, ...) -- CPU_ReadMem(4 bytes @ 0x400E0C08) - Data: 00 00 00 00  returns 0x00 (0001ms, 9381ms total)
T09F8 5876:432 JLINK_ReadMem (0x400E0C08, 0x0004 Bytes, ...) -- CPU_ReadMem(4 bytes @ 0x400E0C08) - Data: 00 00 00 00  returns 0x00 (0001ms, 9382ms total)
T09F8 5876:437 JLINK_ReadMem (0x400E0C08, 0x0004 Bytes, ...) -- CPU_ReadMem(4 bytes @ 0x400E0C08) - Data: 00 00 00 00  returns 0x00 (0001ms, 9383ms total)
T09F8 5876:454 JLINK_ReadMem (0x400E0C08, 0x0004 Bytes, ...) -- CPU_ReadMem(4 bytes @ 0x400E0C08) - Data: 00 00 00 00  returns 0x00 (0001ms, 9384ms total)
T09F8 5876:519 JLINK_ReadMem (0x400E0C08, 0x0004 Bytes, ...) -- CPU_ReadMem(4 bytes @ 0x400E0C08) - Data: 00 00 00 00  returns 0x00 (0001ms, 9385ms total)
T2060 5876:606 JLINK_IsHalted()  returns TRUE (0001ms, 9386ms total)
T09F8 5876:776 JLINK_ReadMem (0x400E0C08, 0x0004 Bytes, ...) -- CPU_ReadMem(4 bytes @ 0x400E0C08) - Data: 00 00 00 00  returns 0x00 (0001ms, 9386ms total)
T2060 5876:807 JLINK_IsHalted()  returns TRUE (0000ms, 9386ms total)
T2060 5877:008 JLINK_IsHalted()  returns TRUE (0000ms, 9386ms total)
T2060 5877:208 JLINK_IsHalted()  returns TRUE (0001ms, 9387ms total)
T2060 5877:409 JLINK_IsHalted()  returns TRUE (0001ms, 9387ms total)
T2060 5877:610 JLINK_IsHalted()  returns TRUE (0000ms, 9386ms total)
T09F8 5877:778 JLINK_ReadMem (0x400E0C08, 0x0004 Bytes, ...) -- CPU_ReadMem(4 bytes @ 0x400E0C08) - Data: 01 00 00 00  returns 0x00 (0001ms, 9387ms total)
T09F8 5877:779 JLINK_ReadMem (0x400E0A08, 0x0004 Bytes, ...) -- CPU_ReadMem(4 bytes @ 0x400E0A08) - Data: 01 00 00 00  returns 0x00 (0001ms, 9388ms total)
T2060 5877:810 JLINK_IsHalted()  returns TRUE (0001ms, 9389ms total)
T09F8 5877:811 JLINK_ResetPullsRESET(ON) (0000ms, 9388ms total)
T09F8 5877:811 JLINK_ResetNoHalt() >0x2F8 JTAG>TotalIRLen = 4, IRPrint = 0x01 >0x30 JTAG> >0x210 JTAG> >0x70 JTAG> >0x40 JTAG> >0x40 JTAG> >0x40 JTAG> >0x48 JTAG> >0x78 JTAG> >0x40 JTAG> >0x30 JTAG> >0x40 JTAG> >0x40 JTAG> >0x30 JTAG> >0x40 JTAG> >0x48 JTAG>Found Cortex-M4 r0p1, Little endian. -- CPU_WriteMem(4 bytes @ 0xE0002000) -- CPU_ReadMem(4 bytes @ 0xE000EDF0) -- CPU_ReadMem(4 bytes @ 0xE0002000)FPUnit: 6 code (BP) slots and 2 literal slots -- CPU_ReadMem(4 bytes @ 0xE000EDFC)
 -- CPU_ReadMem(4 bytes @ 0xE0001000) -- CPU_ReadMem(4 bytes @ 0xE000ED88) -- CPU_WriteMem(4 bytes @ 0xE000ED88) -- CPU_ReadMem(4 bytes @ 0xE000ED88) -- CPU_WriteMem(4 bytes @ 0xE000ED88)CoreSight components:ROMTbl 0 @ E00FF000 -- CPU_ReadMem(16 bytes @ 0xE00FF000) -- CPU_ReadMem(16 bytes @ 0xE000EFF0) -- CPU_ReadMem(16 bytes @ 0xE000EFE0)ROMTbl 0 [0]: FFF0F000, CID: B105E00D, PID: 000BB000 SCS -- CPU_WriteMem(4 bytes @ 0xE0001000) -- CPU_ReadMem(16 bytes @ 0xE0001FF0)
 -- CPU_ReadMem(16 bytes @ 0xE0001FE0)ROMTbl 0 [1]: FFF02000, CID: B105E00D, PID: 003BB002 DWT -- CPU_ReadMem(16 bytes @ 0xE0002FF0) -- CPU_ReadMem(16 bytes @ 0xE0002FE0)ROMTbl 0 [2]: FFF03000, CID: B105E00D, PID: 002BB003 FPB -- CPU_ReadMem(16 bytes @ 0xE0000FF0) -- CPU_ReadMem(16 bytes @ 0xE0000FE0)ROMTbl 0 [3]: FFF01000, CID: B105E00D, PID: 003BB001 ITM -- CPU_ReadMem(16 bytes @ 0xE00FF010) -- CPU_ReadMem(16 bytes @ 0xE0040FF0) -- CPU_ReadMem(16 bytes @ 0xE0040FE0)
ROMTbl 0 [4]: FFF41000, CID: B105900D, PID: 000BB9A1 TPIU
                JLINK_Reset() -- CPU_ReadMem(16 bytes @ 0x20000000) -- CPU_WriteMem(16 bytes @ 0x20000000) -- CPU_ReadMem(4 bytes @ 0xE000EDFC) -- CPU_WriteMem(4 bytes @ 0xE000EDFC) -- CPU_ReadMem(4 bytes @ 0xE0001000) -- CPU_WriteMem(4 bytes @ 0xE0001004) -- CPU_WriteMem(4 bytes @ 0xE000EDFC) -- CPU_WriteMem(16 bytes @ 0x20000000) -- CPU_WriteMem(4 bytes @ 0xE0002000) -- CPU_ReadMem(4 bytes @ 0xE000EDFC) -- CPU_ReadMem(4 bytes @ 0xE0001000) (0039ms, 0039ms total)
                JLINK_Go() -- CPU_ReadMem(4 bytes @ 0xE0001000) -- CPU_WriteMem(4 bytes @ 0xE0001004) (0003ms, 0042ms total)
               (0084ms, 9472ms total)
T09F8 5877:895 JLINK_ExecCommand("ProjectFile = T:\1101298-6\Entregas\14-ADC\ILI93XX_EXAMPLE1\jlink.config", ...)  returns 0x00 (0001ms, 9473ms total)
T09F8 5877:903 JLINK_ExecCommand("Device = AT91SAM4SD32C", ...)Device "ATSAM4SD32C" selected.  returns 0x00 (0001ms, 9474ms total)
T09F8 5877:904 JLINK_TIF_Select(JLINKARM_TIF_JTAG)  returns 0x00 (0000ms, 9474ms total)
T09F8 5877:904 JLINK_GetIdData(...) ScanLen=4 NumDevices=1 aId[0]=0x4BA00477 aIrRead[0]=0 aScanLen[0]=0 aScanRead[0]=0 (0000ms, 9474ms total)
T09F8 5877:904 JLINK_ConfigJTAG(IRPre = 0, DRPre = 0) (0000ms, 9474ms total)
T09F8 5877:904 JLINK_SetSpeed(4000) (0000ms, 9474ms total)
T09F8 5877:904 JLINK_ResetPullsRESET(OFF) (0000ms, 9474ms total)
T09F8 5877:904 JLINK_Connect() >0x2F8 JTAG>TotalIRLen = 4, IRPrint = 0x01 >0x30 JTAG> >0x210 JTAG> >0x70 JTAG> >0x40 JTAG> >0x40 JTAG> >0x40 JTAG> >0x48 JTAG> >0x78 JTAG> >0x40 JTAG> >0x30 JTAG> >0x40 JTAG> >0x40 JTAG> >0x30 JTAG> >0x40 JTAG> >0x48 JTAG>Found Cortex-M4 r0p1, Little endian. -- CPU_WriteMem(4 bytes @ 0xE0002000) -- CPU_ReadMem(4 bytes @ 0xE000EDF0) -- CPU_ReadMem(4 bytes @ 0xE0002000)FPUnit: 6 code (BP) slots and 2 literal slots -- CPU_ReadMem(4 bytes @ 0xE000EDFC)
 -- CPU_ReadMem(4 bytes @ 0xE0001000) -- CPU_WriteMem(4 bytes @ 0xE0001000) -- CPU_ReadMem(4 bytes @ 0xE000ED88) -- CPU_WriteMem(4 bytes @ 0xE000ED88) -- CPU_ReadMem(4 bytes @ 0xE000ED88) -- CPU_WriteMem(4 bytes @ 0xE000ED88)CoreSight components:ROMTbl 0 @ E00FF000 -- CPU_ReadMem(16 bytes @ 0xE00FF000) -- CPU_ReadMem(16 bytes @ 0xE000EFF0) -- CPU_ReadMem(16 bytes @ 0xE000EFE0)ROMTbl 0 [0]: FFF0F000, CID: B105E00D, PID: 000BB000 SCS -- CPU_ReadMem(16 bytes @ 0xE0001FF0)
 -- CPU_ReadMem(16 bytes @ 0xE0001FE0)ROMTbl 0 [1]: FFF02000, CID: B105E00D, PID: 003BB002 DWT -- CPU_ReadMem(16 bytes @ 0xE0002FF0) -- CPU_ReadMem(16 bytes @ 0xE0002FE0)ROMTbl 0 [2]: FFF03000, CID: B105E00D, PID: 002BB003 FPB -- CPU_ReadMem(16 bytes @ 0xE0000FF0) -- CPU_ReadMem(16 bytes @ 0xE0000FE0)ROMTbl 0 [3]: FFF01000, CID: B105E00D, PID: 003BB001 ITM -- CPU_ReadMem(16 bytes @ 0xE00FF010) -- CPU_ReadMem(16 bytes @ 0xE0040FF0) -- CPU_ReadMem(16 bytes @ 0xE0040FE0)
ROMTbl 0 [4]: FFF41000, CID: B105900D, PID: 000BB9A1 TPIU  returns 0x00 (0041ms, 9515ms total)
T09F8 5877:945 JLINK_WriteMem(0xE0001020, 0x0004 Bytes, ...) - Data: 00 00 00 00 -- CPU is running -- CPU_WriteMem(4 bytes @ 0xE0001020)  returns 0x04 (0002ms, 9517ms total)
T09F8 5877:947 JLINK_WriteMem(0xE0001024, 0x0004 Bytes, ...) - Data: 00 00 00 00 -- CPU is running -- CPU_WriteMem(4 bytes @ 0xE0001024)  returns 0x04 (0001ms, 9518ms total)
T09F8 5877:948 JLINK_WriteMem(0xE0001028, 0x0004 Bytes, ...) - Data: 00 00 00 00 -- CPU is running -- CPU_WriteMem(4 bytes @ 0xE0001028)  returns 0x04 (0001ms, 9519ms total)
T09F8 5877:949 JLINK_WriteMem(0xE0001030, 0x0004 Bytes, ...) - Data: 00 00 00 00 -- CPU is running -- CPU_WriteMem(4 bytes @ 0xE0001030)  returns 0x04 (0001ms, 9520ms total)
T09F8 5877:950 JLINK_WriteMem(0xE0001034, 0x0004 Bytes, ...) - Data: 00 00 00 00 -- CPU is running -- CPU_WriteMem(4 bytes @ 0xE0001034)  returns 0x04 (0001ms, 9521ms total)
T09F8 5877:951 JLINK_WriteMem(0xE0001038, 0x0004 Bytes, ...) - Data: 00 00 00 00 -- CPU is running -- CPU_WriteMem(4 bytes @ 0xE0001038)  returns 0x04 (0001ms, 9522ms total)
T09F8 5877:952 JLINK_WriteMem(0xE0001040, 0x0004 Bytes, ...) - Data: 00 00 00 00 -- CPU is running -- CPU_WriteMem(4 bytes @ 0xE0001040)  returns 0x04 (0001ms, 9523ms total)
T09F8 5877:953 JLINK_WriteMem(0xE0001044, 0x0004 Bytes, ...) - Data: 00 00 00 00 -- CPU is running -- CPU_WriteMem(4 bytes @ 0xE0001044)  returns 0x04 (0001ms, 9524ms total)
T09F8 5877:954 JLINK_WriteMem(0xE0001048, 0x0004 Bytes, ...) - Data: 00 00 00 00 -- CPU is running -- CPU_WriteMem(4 bytes @ 0xE0001048)  returns 0x04 (0001ms, 9525ms total)
T09F8 5877:955 JLINK_WriteMem(0xE0001050, 0x0004 Bytes, ...) - Data: 00 00 00 00 -- CPU is running -- CPU_WriteMem(4 bytes @ 0xE0001050)  returns 0x04 (0001ms, 9526ms total)
T09F8 5877:956 JLINK_WriteMem(0xE0001054, 0x0004 Bytes, ...) - Data: 00 00 00 00 -- CPU is running -- CPU_WriteMem(4 bytes @ 0xE0001054)  returns 0x04 (0001ms, 9527ms total)
T09F8 5877:957 JLINK_WriteMem(0xE0001058, 0x0004 Bytes, ...) - Data: 00 00 00 00 -- CPU is running -- CPU_WriteMem(4 bytes @ 0xE0001058)  returns 0x04 (0001ms, 9528ms total)
T09F8 5877:958 JLINK_Halt()  returns 0x00 (0003ms, 9531ms total)
T09F8 5877:962 JLINK_WriteMem(0x400E0A04, 0x0004 Bytes, ...) - Data: 0B 01 00 5A -- CPU_WriteMem(4 bytes @ 0x400E0A04)  returns 0x04 (0000ms, 9531ms total)
T09F8 5877:962 JLINK_ReadMem (0x400E0A08, 0x0004 Bytes, ...) -- CPU_ReadMem(4 bytes @ 0x400E0A08) - Data: 01 00 00 00  returns 0x00 (0001ms, 9532ms total)
T09F8 5877:963 JLINK_WriteMem(0x400E0A04, 0x0004 Bytes, ...) - Data: 0C 02 00 5A -- CPU_WriteMem(4 bytes @ 0x400E0A04)  returns 0x04 (0001ms, 9533ms total)
T09F8 5877:964 JLINK_ReadMem (0x400E0A08, 0x0004 Bytes, ...) -- CPU_ReadMem(4 bytes @ 0x400E0A08) - Data: 01 00 00 00  returns 0x00 (0001ms, 9534ms total)
T09F8 5877:965 JLINK_Reset() -- CPU_ReadMem(16 bytes @ 0x20000000) -- CPU_WriteMem(16 bytes @ 0x20000000) -- CPU_ReadMem(4 bytes @ 0xE000EDFC) -- CPU_WriteMem(4 bytes @ 0xE000EDFC) -- CPU_ReadMem(4 bytes @ 0xE0001000) -- CPU_WriteMem(4 bytes @ 0xE000EDFC) -- CPU_WriteMem(16 bytes @ 0x20000000) -- CPU_WriteMem(4 bytes @ 0xE0002000) -- CPU_ReadMem(4 bytes @ 0xE000EDFC) -- CPU_ReadMem(4 bytes @ 0xE0001000) (0029ms, 9563ms total)
T09F8 5877:995 JLINK_JTAG_GetDeviceID(DeviceIndex = 0)  returns 0x4BA00477 (0000ms, 9563ms total)
T09F8 5877:995 JLINK_ReadMemU32(0x400E0740, 0x0001 Items, ...) -- CPU_ReadMem(4 bytes @ 0x400E0740) - Data: E0 0E A7 29  returns 0x01 (0001ms, 9564ms total)
T09F8 5877:996 JLINK_ReadMemU32(0x400E0744, 0x0001 Items, ...) -- CPU_ReadMem(4 bytes @ 0x400E0744) - Data: 00 00 00 00  returns 0x01 (0001ms, 9565ms total)
T09F8 5878:000 JLINK_BeginDownload(Flags = 0x00) (0000ms, 9565ms total)
T09F8 5878:000 JLINK_WriteMem(0x00400000, 0x1744 Bytes, ...) - Data: A0 38 00 20 2D 11 40 00 29 11 40 00 29 11 40 00 ...  returns 0x1744 (0000ms, 9565ms total)
T09F8 5878:000 JLINK_WriteMem(0x00401744, 0x0438 Bytes, ...) - Data: F0 00 00 00 40 01 00 00 00 09 3D 00 00 00 00 00 ...  returns 0x438 (0000ms, 9565ms total)
T21C4 5878:005 JLINK_IsHalted()  returns TRUE (0000ms, 9565ms total)
T21C4 5878:005 JLINK_GetMOEs(...) -- CPU_ReadMem(4 bytes @ 0xE000ED30) -- CPU_WriteMem(4 bytes @ 0xE000ED30)  returns 0x01 (0002ms, 9567ms total)
T21C4 5878:007 JLINK_ReadReg(R15 (PC)) -- -------------------------------------- -- Start of determining dirty areas in flash cache -- End of determining dirty areas -- Start of preparing flash programming -- Calculating RAM usage -- RAM usage = 2884 Bytes -- Preserving registers -- Preparing memory -- Determining CPU clock frequency -- CPU clock frequency: 4166 kHz -- CPU frequency = 4166 kHz -- Preparing target -- Downloading RAMCode -- Using alternate TurboMode RAMCode -- Checking target RAM
 -- Preparing RAMCode -- End of preparing flash programmingCPU is running at low speed (4166 kHz). -- CPU is running at 4166 kHz. -- Start of comparing flash -- Read back was estimated as fastest method -- Comparing range 0x400000 - 0x401BFF (14 Sectors, 7 KB), using multi-block CRC calculation -- CPU is running -- CPU_ReadMem(512 bytes @ 0x00400000) -- CPU is running -- CPU_ReadMem(512 bytes @ 0x00400200) -- CPU is running -- CPU_ReadMem(512 bytes @ 0x00400400) -- CPU is running
 -- CPU_ReadMem(512 bytes @ 0x00400600) -- CPU is running -- CPU_ReadMem(512 bytes @ 0x00400800) -- CPU is running -- CPU_ReadMem(512 bytes @ 0x00400A00) -- CPU is running -- CPU_ReadMem(512 bytes @ 0x00400C00) -- CPU is running -- CPU_ReadMem(512 bytes @ 0x00400E00) -- CPU is running -- CPU_ReadMem(512 bytes @ 0x00401000) -- CPU is running -- CPU_ReadMem(512 bytes @ 0x00401200) -- CPU is running -- CPU_ReadMem(512 bytes @ 0x00401400) -- CPU is running -- CPU_ReadMem(512 bytes @ 0x00401600)
 -- CPU is running -- CPU_ReadMem(512 bytes @ 0x00401800) -- CPU is running -- CPU_ReadMem(512 bytes @ 0x00401A00) -- CRC does not match for sectors 0-13 -- End of comparing flash -- Start of erasing sectors -- End of erasing sectors -- Start of flash programming -- Programming range 0x00400000 - 0x00401BFF (014 Sectors, 7 KB) -- End of flash programming -- Flash programming performed for 1 range (7168 bytes) -- 0x400000 - 0x401BFF (014 Sectors, 7 KB) -- Start of verifying flash
 -- Checksum calculation was estimated as fastest method -- End of verifying flash -- Start of restoring -- Restore RAMCode -- Restore content of target memory -- Restore target -- Restore memory -- Restore content of registers -- End of restoring -- Total time needed: 0.259s (Prepare: 0.089s, Compare: 0.059s, Erase: 0.000s, Program: 0.100s, Verify: 0.004s, Restore: 0.006s)  returns 0xFFFFFFFE (0262ms, 9829ms total)
T1838 5878:323 JLINK_Halt()  returns 0x00 (0000ms, 9829ms total)
T1838 5878:323 JLINK_ReadReg(R15 (PC))  returns 0xFFFFFFFE (0000ms, 9829ms total)
T1838 5878:323 JLINK_ReadReg(R13 (SP))  returns 0xFFFFFFFC (0000ms, 9829ms total)
T1838 5878:409 JLINK_ReadReg(R0)  returns 0x400E1400 (0000ms, 9829ms total)
T1838 5878:409 JLINK_ReadReg(R1)  returns 0x40C00000 (0000ms, 9829ms total)
T1838 5878:409 JLINK_ReadReg(R2)  returns 0xA5000005 (0000ms, 9829ms total)
T1838 5878:409 JLINK_ReadReg(R3)  returns 0x00400BED (0000ms, 9829ms total)
T1838 5878:409 JLINK_ReadReg(R4)  returns 0x40038000 (0000ms, 9829ms total)
T1838 5878:409 JLINK_ReadReg(R5)  returns 0x00400BA9 (0000ms, 9829ms total)
T1838 5878:409 JLINK_ReadReg(R6)  returns 0x20003D30 (0000ms, 9829ms total)
T1838 5878:409 JLINK_ReadReg(R7)  returns 0x20000D04 (0000ms, 9829ms total)
T1838 5878:409 JLINK_ReadReg(R8)  returns 0x20000D08 (0000ms, 9829ms total)
T1838 5878:409 JLINK_ReadReg(R9)  returns 0x20000010 (0000ms, 9829ms total)
T1838 5878:409 JLINK_ReadReg(R10)  returns 0x00000005 (0000ms, 9829ms total)
T1838 5878:409 JLINK_ReadReg(R11)  returns 0x00404548 (0000ms, 9829ms total)
T1838 5878:409 JLINK_ReadReg(R12)  returns 0x000003E3 (0000ms, 9829ms total)
T1838 5878:409 JLINK_ReadReg(R13 (SP))  returns 0xFFFFFFFC (0000ms, 9829ms total)
T1838 5878:409 JLINK_ReadReg(R14)  returns 0xFFFFFFFF (0000ms, 9829ms total)
T1838 5878:409 JLINK_ReadReg(R15 (PC))  returns 0xFFFFFFFE (0000ms, 9829ms total)
T1838 5878:410 JLINK_ReadReg(XPSR)  returns 0x01000000 (0001ms, 9830ms total)
T1838 5878:411 JLINK_ReadReg(MSP)  returns 0xFFFFFFFC (0000ms, 9830ms total)
T1838 5878:411 JLINK_ReadReg(PSP)  returns 0x5DF3D164 (0000ms, 9830ms total)
T1838 5878:411 JLINK_ReadReg(PRIMASK)  returns 0x00000000 (0000ms, 9830ms total)
T1838 5878:411 JLINK_ReadReg(BASEPRI)  returns 0x00000000 (0000ms, 9830ms total)
T1838 5878:411 JLINK_ReadReg(FAULTMASK)  returns 0x00000000 (0000ms, 9830ms total)
T1838 5878:411 JLINK_ReadReg(CONTROL)  returns 0x00000000 (0000ms, 9830ms total)
T1838 5878:421 JLINK_EndDownload()  returns 0x00 (0000ms, 9830ms total)
T1838 5878:421 JLINK_Reset() -- CPU_ReadMem(16 bytes @ 0x20000000) -- CPU_WriteMem(16 bytes @ 0x20000000) -- CPU_ReadMem(4 bytes @ 0xE000EDFC) -- CPU_WriteMem(4 bytes @ 0xE000EDFC) -- CPU_ReadMem(4 bytes @ 0xE0001000) -- CPU_WriteMem(4 bytes @ 0xE000EDFC) -- CPU_WriteMem(16 bytes @ 0x20000000) -- CPU_WriteMem(4 bytes @ 0xE0002000) -- CPU_ReadMem(4 bytes @ 0xE000EDFC) -- CPU_ReadMem(4 bytes @ 0xE0001000) (0030ms, 9860ms total)
T21C4 5878:451 JLINK_IsHalted()  returns TRUE (0000ms, 9860ms total)
T21C4 5878:451 JLINK_GetMOEs(...) -- CPU_ReadMem(4 bytes @ 0xE000ED30) -- CPU_WriteMem(4 bytes @ 0xE000ED30)  returns 0x01 (0002ms, 9862ms total)
T21C4 5878:453 JLINK_ReadReg(R15 (PC))  returns 0x0040112C (0000ms, 9862ms total)
T1838 5878:461 JLINK_ReadReg(R15 (PC))  returns 0x0040112C (0000ms, 9862ms total)
T1838 5878:461 JLINK_ReadReg(R13 (SP))  returns 0x200038A0 (0000ms, 9862ms total)
T1838 5878:466 JLINK_ReadMemHW(0x0040112C, 0x0004 Bytes, ...) -- CPU_ReadMem(4 bytes @ 0x0040112C) - Data: 08 B5 20 4B  returns 0x00 (0002ms, 9864ms total)
T1838 5878:478 JLINK_ReadMemHW(0x0040153A, 0x0002 Bytes, ...) -- CPU_ReadMem(2 bytes @ 0x0040153A) - Data: 05 48  returns 0x00 (0001ms, 9865ms total)
T1838 5878:479 JLINK_ReadMemHW(0x0040153C, 0x0002 Bytes, ...) -- CPU_ReadMem(2 bytes @ 0x0040153C) - Data: 05 4B  returns 0x00 (0001ms, 9866ms total)
T1838 5878:482 JLINK_ReadMemHW(0x00401546, 0x0002 Bytes, ...) -- CPU_ReadMem(2 bytes @ 0x00401546) - Data: 02 48  returns 0x00 (0001ms, 9867ms total)
T09F8 5878:483 JLINK_GetNumBPUnits(Type = 0xFFFFFF02)  returns 0x06 (0000ms, 9867ms total)
T09F8 5878:483 JLINK_SetBPEx(Addr = 0x00401546, Type = 0xFFFFFFF2)  returns 0x00000001 (0000ms, 9867ms total)
T09F8 5878:483 JLINK_GetBPInfo(BPHandle = 1)  returns 0x00 (0000ms, 9867ms total)
T1838 5878:543 JLINK_ReadMemHW(0x0040155C, 0x0001 Bytes, ...) -- CPU_ReadMem(1 bytes @ 0x0040155C) - Data: 08  returns 0x00 (0001ms, 9868ms total)
T1838 5878:584 JLINK_ReadReg(R15 (PC))  returns 0x0040112C (0000ms, 9868ms total)
T1838 5878:584 JLINK_SetBPEx(Addr = 0x0040155C, Type = 0xFFFFFF02)  returns 0x00000002 (0000ms, 9868ms total)
T1838 5878:584 JLINK_GetBPInfo(BPHandle = 2)  returns 0x00 (0000ms, 9868ms total)
T1838 5878:584 JLINK_Go() -- CPU_ReadMem(4 bytes @ 0xE0001000) -- CPU_WriteMem(4 bytes @ 0xE0002008) -- CPU_WriteMem(4 bytes @ 0xE000200C) -- CPU_WriteMem(4 bytes @ 0xE0002010) -- CPU_WriteMem(4 bytes @ 0xE0002014) -- CPU_WriteMem(4 bytes @ 0xE0002018) -- CPU_WriteMem(4 bytes @ 0xE000201C) -- CPU_WriteMem(4 bytes @ 0xE0001004) (0009ms, 9877ms total)
T21C4 5878:593 JLINK_IsHalted()  returns TRUE (0004ms, 9881ms total)
T21C4 5878:597 JLINK_GetMOEs(...) -- CPU_ReadMem(4 bytes @ 0xE000ED30) -- CPU_WriteMem(4 bytes @ 0xE000ED30)  returns 0x01 (0002ms, 9879ms total)
T21C4 5878:599 JLINK_ReadReg(R15 (PC))  returns 0x0040155C (0000ms, 9879ms total)
T21C4 5878:599 JLINK_GetBPInfo(BPHandle = 2)  returns 0x00 (0000ms, 9879ms total)
T21C4 5878:599 JLINK_ClrBPEx(BPHandle = 0x00000002)  returns 0x00 (0000ms, 9879ms total)
T1838 5878:603 JLINK_ReadReg(R15 (PC))  returns 0x0040155C (0000ms, 9879ms total)
T1838 5878:603 JLINK_ReadReg(R13 (SP))  returns 0x20003898 (0000ms, 9879ms total)
T1838 5878:603 JLINK_ReadMemHW(0x0040155C, 0x0004 Bytes, ...) -- CPU_ReadMem(4 bytes @ 0x0040155C) - Data: 08 B5 13 4B  returns 0x00 (0001ms, 9880ms total)
T1838 5878:614 JLINK_ReadReg(R15 (PC))  returns 0x0040155C (0000ms, 9880ms total)
T1838 5878:614 JLINK_Go() -- CPU_ReadMem(4 bytes @ 0xE0001000) -- CPU_WriteMem(4 bytes @ 0xE000200C) (0003ms, 9883ms total)
T21C4 5878:617 JLINK_IsHalted()  returns FALSE (0001ms, 9884ms total)
T21C4 5878:658 JLINK_IsHalted()  returns FALSE (0001ms, 9884ms total)
T21C4 5878:819 JLINK_IsHalted()  returns TRUE (0004ms, 9887ms total)
T21C4 5878:823 JLINK_GetMOEs(...) -- CPU_ReadMem(4 bytes @ 0xE000ED30) -- CPU_WriteMem(4 bytes @ 0xE000ED30)  returns 0x01 (0002ms, 9885ms total)
T21C4 5878:825 JLINK_ReadReg(R15 (PC))  returns 0x00401546 (0000ms, 9885ms total)
T1838 5878:827 JLINK_ReadReg(R15 (PC))  returns 0x00401546 (0000ms, 9885ms total)
T1838 5878:827 JLINK_ReadReg(R13 (SP))  returns 0x20003858 (0000ms, 9885ms total)
T1838 5878:827 JLINK_ReadMemHW(0x00401546, 0x0004 Bytes, ...) -- CPU_ReadMem(4 bytes @ 0x00401546) - Data: 02 48 00 21  returns 0x00 (0001ms, 9886ms total)
T1838 5878:849 JLINK_ReadMem (0x2000385C, 0x0004 Bytes, ...) -- CPU_ReadMem(64 bytes @ 0x20003840) -- Updating C cache (64 bytes @ 0x20003840) -- Read from C cache (4 bytes @ 0x2000385C) - Data: F9 FF FF FF  returns 0x00 (0001ms, 9887ms total)
T1838 5878:850 JLINK_ReadMem (0x2000385C, 0x0004 Bytes, ...) -- Read from C cache (4 bytes @ 0x2000385C) - Data: F9 FF FF FF  returns 0x00 (0000ms, 9887ms total)
T1838 5878:850 JLINK_ReadMem (0x2000387C, 0x0004 Bytes, ...) -- Read from C cache (4 bytes @ 0x2000387C) - Data: 00 00 00 01  returns 0x00 (0001ms, 9888ms total)
T1838 5878:851 JLINK_ReadMem (0x20003878, 0x0004 Bytes, ...) -- Read from C cache (4 bytes @ 0x20003878) - Data: CC 14 40 00  returns 0x00 (0000ms, 9888ms total)
T1838 5878:851 JLINK_ReadMemHW(0x004014CC, 0x0004 Bytes, ...) -- CPU_ReadMem(4 bytes @ 0x004014CC) - Data: 38 BD 00 BF  returns 0x00 (0001ms, 9889ms total)
T1838 5878:852 JLINK_ReadMem (0x2000388C, 0x0004 Bytes, ...) -- CPU_ReadMem(64 bytes @ 0x20003880) -- Updating C cache (64 bytes @ 0x20003880) -- Read from C cache (4 bytes @ 0x2000388C) - Data: 6F 15 40 00  returns 0x00 (0002ms, 9891ms total)
T1838 5878:854 JLINK_ReadMem (0x2000388C, 0x0004 Bytes, ...) -- Read from C cache (4 bytes @ 0x2000388C) - Data: 6F 15 40 00  returns 0x00 (0001ms, 9892ms total)
T1838 5878:855 JLINK_ReadMemHW(0x0040156E, 0x0004 Bytes, ...) -- CPU_ReadMem(4 bytes @ 0x0040156E) - Data: 17 20 12 4B  returns 0x00 (0001ms, 9893ms total)
T09F8 5878:880 JLINK_GetDebugInfo(0x100) -- Value=0xE00FF003  returns 0x00 (0000ms, 9893ms total)
T09F8 5878:880 JLINK_ReadMem (0xE00FFFF0, 0x0010 Bytes, ...) -- CPU_ReadMem(16 bytes @ 0xE00FFFF0) - Data: 0D 00 00 00 10 00 00 00 05 00 00 00 B1 00 00 00  returns 0x00 (0001ms, 9894ms total)
T09F8 5878:881 JLINK_ReadMem (0xE00FFFD0, 0x0020 Bytes, ...) -- CPU_ReadMem(32 bytes @ 0xE00FFFD0) - Data: 04 00 00 00 00 00 00 00 00 00 00 00 00 00 00 00 ...  returns 0x00 (0001ms, 9895ms total)
T09F8 5878:882 JLINK_ReadMemU32(0xE00FF000, 0x0001 Items, ...) -- CPU_ReadMem(4 bytes @ 0xE00FF000) - Data: 03 F0 F0 FF  returns 0x01 (0001ms, 9896ms total)
T09F8 5878:883 JLINK_ReadMem (0xE000EFF0, 0x0010 Bytes, ...) -- CPU_ReadMem(16 bytes @ 0xE000EFF0) - Data: 0D 00 00 00 E0 00 00 00 05 00 00 00 B1 00 00 00  returns 0x00 (0001ms, 9897ms total)
T09F8 5878:884 JLINK_ReadMem (0xE000EFD0, 0x0020 Bytes, ...) -- CPU_ReadMem(32 bytes @ 0xE000EFD0) - Data: 04 00 00 00 00 00 00 00 00 00 00 00 00 00 00 00 ...  returns 0x00 (0001ms, 9898ms total)
T09F8 5878:885 JLINK_ReadMemU32(0xE00FF004, 0x0001 Items, ...) -- CPU_ReadMem(4 bytes @ 0xE00FF004) - Data: 03 20 F0 FF  returns 0x01 (0001ms, 9899ms total)
T09F8 5878:886 JLINK_ReadMem (0xE0001FF0, 0x0010 Bytes, ...) -- CPU_ReadMem(16 bytes @ 0xE0001FF0) - Data: 0D 00 00 00 E0 00 00 00 05 00 00 00 B1 00 00 00  returns 0x00 (0001ms, 9900ms total)
T09F8 5878:887 JLINK_ReadMem (0xE0001FD0, 0x0020 Bytes, ...) -- CPU_ReadMem(32 bytes @ 0xE0001FD0) - Data: 04 00 00 00 00 00 00 00 00 00 00 00 00 00 00 00 ...  returns 0x00 (0001ms, 9901ms total)
T09F8 5878:888 JLINK_ReadMemU32(0xE00FF008, 0x0001 Items, ...) -- CPU_ReadMem(4 bytes @ 0xE00FF008) - Data: 03 30 F0 FF  returns 0x01 (0001ms, 9902ms total)
T09F8 5878:889 JLINK_ReadMem (0xE0002FF0, 0x0010 Bytes, ...) -- CPU_ReadMem(16 bytes @ 0xE0002FF0) - Data: 0D 00 00 00 E0 00 00 00 05 00 00 00 B1 00 00 00  returns 0x00 (0001ms, 9903ms total)
T09F8 5878:890 JLINK_ReadMem (0xE0002FD0, 0x0020 Bytes, ...) -- CPU_ReadMem(32 bytes @ 0xE0002FD0) - Data: 04 00 00 00 00 00 00 00 00 00 00 00 00 00 00 00 ...  returns 0x00 (0001ms, 9904ms total)
T09F8 5878:891 JLINK_ReadMemU32(0xE00FF00C, 0x0001 Items, ...) -- CPU_ReadMem(4 bytes @ 0xE00FF00C) - Data: 03 10 F0 FF  returns 0x01 (0001ms, 9905ms total)
T09F8 5878:892 JLINK_ReadMem (0xE0000FF0, 0x0010 Bytes, ...) -- CPU_ReadMem(16 bytes @ 0xE0000FF0) - Data: 0D 00 00 00 E0 00 00 00 05 00 00 00 B1 00 00 00  returns 0x00 (0001ms, 9906ms total)
T09F8 5878:893 JLINK_ReadMem (0xE0000FD0, 0x0020 Bytes, ...) -- CPU_ReadMem(32 bytes @ 0xE0000FD0) - Data: 04 00 00 00 00 00 00 00 00 00 00 00 00 00 00 00 ...  returns 0x00 (0001ms, 9907ms total)
T09F8 5878:894 JLINK_ReadMemU32(0xE00FF010, 0x0001 Items, ...) -- CPU_ReadMem(4 bytes @ 0xE00FF010) - Data: 03 10 F4 FF  returns 0x01 (0001ms, 9908ms total)
T09F8 5878:895 JLINK_ReadMem (0xE0040FF0, 0x0010 Bytes, ...) -- CPU_ReadMem(16 bytes @ 0xE0040FF0) - Data: 0D 00 00 00 90 00 00 00 05 00 00 00 B1 00 00 00  returns 0x00 (0001ms, 9909ms total)
T09F8 5878:896 JLINK_ReadMem (0xE0040FD0, 0x0020 Bytes, ...) -- CPU_ReadMem(32 bytes @ 0xE0040FD0) - Data: 04 00 00 00 00 00 00 00 00 00 00 00 00 00 00 00 ...  returns 0x00 (0001ms, 9910ms total)
T09F8 5878:897 JLINK_ReadMemU32(0xE00FF014, 0x0001 Items, ...) -- CPU_ReadMem(4 bytes @ 0xE00FF014) - Data: 02 20 F4 FF  returns 0x01 (0001ms, 9911ms total)
T09F8 5878:898 JLINK_ReadMemU32(0xE00FF018, 0x0001 Items, ...) -- CPU_ReadMem(4 bytes @ 0xE00FF018) - Data: 00 00 00 00  returns 0x01 (0001ms, 9912ms total)
T09F8 5878:899 JLINK_GetDebugInfo(0x100) -- Value=0xE00FF003  returns 0x00 (0000ms, 9912ms total)
T09F8 5878:899 JLINK_ReadMem (0xE00FFFF0, 0x0010 Bytes, ...) -- CPU_ReadMem(16 bytes @ 0xE00FFFF0) - Data: 0D 00 00 00 10 00 00 00 05 00 00 00 B1 00 00 00  returns 0x00 (0001ms, 9913ms total)
T09F8 5878:900 JLINK_ReadMem (0xE00FFFD0, 0x0020 Bytes, ...) -- CPU_ReadMem(32 bytes @ 0xE00FFFD0) - Data: 04 00 00 00 00 00 00 00 00 00 00 00 00 00 00 00 ...  returns 0x00 (0001ms, 9914ms total)
T09F8 5878:901 JLINK_ReadMemU32(0xE00FF000, 0x0001 Items, ...) -- CPU_ReadMem(4 bytes @ 0xE00FF000) - Data: 03 F0 F0 FF  returns 0x01 (0001ms, 9915ms total)
T09F8 5878:902 JLINK_ReadMem (0xE000EFF0, 0x0010 Bytes, ...) -- CPU_ReadMem(16 bytes @ 0xE000EFF0) - Data: 0D 00 00 00 E0 00 00 00 05 00 00 00 B1 00 00 00  returns 0x00 (0001ms, 9916ms total)
T09F8 5878:903 JLINK_ReadMem (0xE000EFD0, 0x0020 Bytes, ...) -- CPU_ReadMem(32 bytes @ 0xE000EFD0) - Data: 04 00 00 00 00 00 00 00 00 00 00 00 00 00 00 00 ...  returns 0x00 (0001ms, 9917ms total)
T09F8 5878:904 JLINK_ReadMemU32(0xE00FF004, 0x0001 Items, ...) -- CPU_ReadMem(4 bytes @ 0xE00FF004) - Data: 03 20 F0 FF  returns 0x01 (0001ms, 9918ms total)
T09F8 5878:905 JLINK_ReadMem (0xE0001FF0, 0x0010 Bytes, ...) -- CPU_ReadMem(16 bytes @ 0xE0001FF0) - Data: 0D 00 00 00 E0 00 00 00 05 00 00 00 B1 00 00 00  returns 0x00 (0001ms, 9919ms total)
T09F8 5878:906 JLINK_ReadMem (0xE0001FD0, 0x0020 Bytes, ...) -- CPU_ReadMem(32 bytes @ 0xE0001FD0) - Data: 04 00 00 00 00 00 00 00 00 00 00 00 00 00 00 00 ...  returns 0x00 (0001ms, 9920ms total)
T09F8 5878:907 JLINK_ReadMemU32(0xE00FF008, 0x0001 Items, ...) -- CPU_ReadMem(4 bytes @ 0xE00FF008) - Data: 03 30 F0 FF  returns 0x01 (0001ms, 9921ms total)
T09F8 5878:908 JLINK_ReadMem (0xE0002FF0, 0x0010 Bytes, ...) -- CPU_ReadMem(16 bytes @ 0xE0002FF0) - Data: 0D 00 00 00 E0 00 00 00 05 00 00 00 B1 00 00 00  returns 0x00 (0001ms, 9922ms total)
T09F8 5878:909 JLINK_ReadMem (0xE0002FD0, 0x0020 Bytes, ...) -- CPU_ReadMem(32 bytes @ 0xE0002FD0) - Data: 04 00 00 00 00 00 00 00 00 00 00 00 00 00 00 00 ...  returns 0x00 (0001ms, 9923ms total)
T09F8 5878:910 JLINK_ReadMemU32(0xE00FF00C, 0x0001 Items, ...) -- CPU_ReadMem(4 bytes @ 0xE00FF00C) - Data: 03 10 F0 FF  returns 0x01 (0001ms, 9924ms total)
T09F8 5878:911 JLINK_ReadMem (0xE0000FF0, 0x0010 Bytes, ...) -- CPU_ReadMem(16 bytes @ 0xE0000FF0) - Data: 0D 00 00 00 E0 00 00 00 05 00 00 00 B1 00 00 00  returns 0x00 (0001ms, 9925ms total)
T09F8 5878:912 JLINK_ReadMem (0xE0000FD0, 0x0020 Bytes, ...) -- CPU_ReadMem(32 bytes @ 0xE0000FD0) - Data: 04 00 00 00 00 00 00 00 00 00 00 00 00 00 00 00 ...  returns 0x00 (0001ms, 9926ms total)
T09F8 5878:913 JLINK_ReadMemU32(0xE00FF010, 0x0001 Items, ...) -- CPU_ReadMem(4 bytes @ 0xE00FF010) - Data: 03 10 F4 FF  returns 0x01 (0001ms, 9927ms total)
T09F8 5878:914 JLINK_ReadMem (0xE0040FF0, 0x0010 Bytes, ...) -- CPU_ReadMem(16 bytes @ 0xE0040FF0) - Data: 0D 00 00 00 90 00 00 00 05 00 00 00 B1 00 00 00  returns 0x00 (0001ms, 9928ms total)
T09F8 5878:915 JLINK_ReadMem (0xE0040FD0, 0x0020 Bytes, ...) -- CPU_ReadMem(32 bytes @ 0xE0040FD0) - Data: 04 00 00 00 00 00 00 00 00 00 00 00 00 00 00 00 ...  returns 0x00 (0001ms, 9929ms total)
T09F8 5878:916 JLINK_ReadMemU32(0xE00FF014, 0x0001 Items, ...) -- CPU_ReadMem(4 bytes @ 0xE00FF014) - Data: 02 20 F4 FF  returns 0x01 (0001ms, 9930ms total)
T09F8 5878:917 JLINK_ReadMemU32(0xE00FF018, 0x0001 Items, ...) -- CPU_ReadMem(4 bytes @ 0xE00FF018) - Data: 00 00 00 00  returns 0x01 (0001ms, 9931ms total)
T09F8 5878:918 JLINK_GetDebugInfo(0x100) -- Value=0xE00FF003  returns 0x00 (0000ms, 9931ms total)
T09F8 5878:918 JLINK_ReadMem (0xE00FFFF0, 0x0010 Bytes, ...) -- CPU_ReadMem(16 bytes @ 0xE00FFFF0) - Data: 0D 00 00 00 10 00 00 00 05 00 00 00 B1 00 00 00  returns 0x00 (0001ms, 9932ms total)
